                   *  home ameya esim-workspace 10bb 10bb.cir
                   Transient Analysis  Wed Jul 29 12:15:05  2020
--------------------------------------------------------------------------------
Index   time            v1#branch       v2#branch       v3#branch       
--------------------------------------------------------------------------------
0	0.000000e+00	-8.70417e-04	0.000000e+00	0.000000e+00	
1	5.000000e-13	-7.73343e-04	-1.87781e-04	3.101788e-05	
2	1.000000e-12	-7.47755e-04	-2.18612e-04	2.961207e-05	
3	2.000000e-12	-7.15271e-04	-2.57435e-04	2.537945e-05	
4	4.000000e-12	-6.72181e-04	-2.98249e-04	1.504993e-05	
5	8.000000e-12	-6.39047e-04	-3.30189e-04	4.629342e-06	
6	1.600000e-11	-6.37621e-04	-3.64853e-04	1.014944e-06	
7	3.200000e-11	-8.11480e-04	-3.89013e-04	-5.87405e-06	
8	5.000000e-11	-1.05514e-03	-4.12058e-04	4.021720e-06	
9	5.320000e-11	-1.21831e-03	-1.35814e-04	-2.10759e-05	
10	5.960000e-11	-1.26956e-03	-6.67223e-05	-5.80536e-06	
11	7.240000e-11	-1.26574e-03	-6.64341e-05	8.911900e-07	
12	9.800000e-11	-1.28482e-03	-2.15451e-05	7.452597e-06	
13	1.492000e-10	-1.26873e-03	1.372788e-05	1.165869e-05	
14	2.411450e-10	-1.20486e-03	-4.50957e-06	-6.63678e-07	
15	3.268049e-10	-1.23546e-03	4.970533e-06	1.103399e-05	
16	4.678613e-10	-1.21535e-03	-1.75516e-06	-6.44934e-06	
17	6.074771e-10	-1.22852e-03	9.237263e-07	7.702601e-06	
18	8.867088e-10	-1.21778e-03	-3.55474e-07	-7.70178e-06	
19	1.000000e-09	-1.22627e-03	-8.58169e-07	7.682960e-06	
20	1.005000e-09	-1.14852e-03	2.526530e-05	-1.31731e-04	
21	1.015000e-09	-1.11074e-03	1.025734e-05	-1.75971e-04	
22	1.035000e-09	-1.19926e-03	-8.67902e-06	-2.05568e-04	
23	1.050000e-09	-1.30358e-03	-7.38804e-06	-1.99643e-04	
24	1.054000e-09	-1.37199e-03	-2.62979e-05	-7.74131e-05	
25	1.062000e-09	-1.39354e-03	-6.17083e-06	-6.00880e-05	
26	1.078000e-09	-1.41013e-03	-1.36342e-07	-4.37316e-05	
27	1.110000e-09	-1.44155e-03	-8.99865e-06	1.473349e-05	
28	1.174000e-09	-1.41742e-03	1.275415e-05	-1.53440e-06	
29	1.244833e-09	-1.40036e-03	-7.98903e-06	4.851502e-06	
30	1.378979e-09	-1.39615e-03	7.230346e-06	-5.06170e-06	
31	1.499715e-09	-1.40248e-03	-6.45798e-06	5.225003e-06	
32	1.741186e-09	-1.39510e-03	6.103430e-06	-5.28072e-06	
33	2.000000e-09	-1.40293e-03	-5.78973e-06	5.320770e-06	
34	2.005000e-09	-1.24508e-03	1.057238e-06	1.743033e-07	
35	2.015000e-09	-1.19807e-03	1.670818e-06	6.607492e-07	
36	2.035000e-09	-1.39712e-03	-3.11679e-06	-4.87283e-07	
37	2.050000e-09	-1.56745e-03	-1.28665e-07	1.019840e-07	
38	2.054000e-09	-1.71560e-03	-7.17519e-06	-9.15009e-07	
39	2.062000e-09	-1.74913e-03	-3.08343e-06	-1.20278e-06	
40	2.078000e-09	-1.75202e-03	1.093649e-06	-6.18156e-07	
41	2.110000e-09	-1.75446e-03	-6.15745e-07	1.198209e-07	
42	2.173950e-09	-1.74809e-03	2.397318e-06	3.266575e-07	
43	2.280306e-09	-1.75256e-03	-1.90217e-06	-1.41167e-08	
44	2.393535e-09	-1.75117e-03	1.760476e-06	-3.52882e-08	
45	2.546289e-09	-1.75070e-03	-1.69617e-06	4.244559e-08	
46	2.851799e-09	-1.75198e-03	1.667865e-06	-4.35010e-08	
47	3.000000e-09	-1.75016e-03	-1.61299e-06	4.384736e-08	
48	3.005000e-09	-1.68010e-03	8.200124e-07	1.378114e-07	
49	3.015000e-09	-1.65453e-03	1.242519e-06	2.557307e-07	
50	3.035000e-09	-1.74672e-03	-7.60880e-07	5.044646e-08	
51	3.050000e-09	-1.83204e-03	-1.24284e-07	-3.78697e-08	
52	3.054000e-09	-1.89975e-03	-2.09124e-06	-1.96549e-07	
53	3.062000e-09	-1.91475e-03	-2.73731e-06	-4.47497e-07	
54	3.078000e-09	-1.92700e-03	-2.14958e-07	-5.29273e-07	

Index   time            v1#branch       v2#branch       v3#branch       
--------------------------------------------------------------------------------
55	3.110000e-09	-1.93193e-03	-6.89354e-08	2.601613e-09	
56	3.174000e-09	-1.92900e-03	9.002949e-07	1.608090e-07	
57	3.277485e-09	-1.92642e-03	-5.34912e-07	2.699978e-08	
58	3.388421e-09	-1.92826e-03	4.178551e-07	-4.78148e-08	
59	3.541449e-09	-1.92655e-03	-3.64757e-07	4.628359e-08	
60	3.847507e-09	-1.92821e-03	3.422852e-07	-4.43588e-08	
61	4.000000e-09	-1.92659e-03	-3.02172e-07	3.997972e-08	
62	4.005000e-09	-1.77829e-03	1.917520e-07	5.946850e-08	
63	4.015000e-09	-1.73100e-03	3.432232e-07	7.606200e-08	
64	4.035000e-09	-1.92847e-03	-4.77978e-08	4.297773e-08	
65	4.050000e-09	-2.10189e-03	-1.96129e-07	-1.20979e-08	
66	4.054000e-09	-2.24387e-03	-6.46055e-07	-5.92726e-08	
67	4.062000e-09	-2.26936e-03	-7.95741e-07	-1.25982e-07	
68	4.078000e-09	-2.26882e-03	-9.91814e-08	-1.56207e-07	
69	4.110000e-09	-2.27321e-03	-7.26578e-08	-1.85729e-08	
70	4.173555e-09	-2.27578e-03	2.619969e-07	4.355418e-08	
71	4.279898e-09	-2.28126e-03	-1.18254e-07	1.784117e-08	
72	4.394646e-09	-2.27942e-03	7.911137e-08	-2.02099e-08	
73	4.552779e-09	-2.27942e-03	-6.45951e-08	1.715501e-08	
74	4.869043e-09	-2.28019e-03	5.895457e-08	-1.55703e-08	
75	5.000000e-09	-2.27887e-03	-4.74700e-08	1.223953e-08	
76	5.005000e-09	-2.20961e-03	6.997348e-08	1.933462e-08	
77	5.015000e-09	-2.18594e-03	1.953911e-07	3.388193e-08	
78	5.035000e-09	-2.27796e-03	7.870615e-08	4.384345e-08	
79	5.050000e-09	-2.36449e-03	-6.81773e-08	7.279623e-09	
80	5.054000e-09	-2.42926e-03	-2.33338e-07	-9.06242e-09	
81	5.062000e-09	-2.44108e-03	-4.39934e-07	-5.29965e-08	
82	5.078000e-09	-2.44985e-03	-1.93112e-07	-8.73138e-08	
83	5.110000e-09	-2.45439e-03	-1.17867e-08	-3.67603e-08	
84	5.174000e-09	-2.45561e-03	1.101132e-07	3.693877e-08	
85	5.281225e-09	-2.45586e-03	-1.79823e-08	2.327872e-09	
86	5.396888e-09	-2.45603e-03	-3.89511e-09	-3.31570e-09	
87	5.556361e-09	-2.45563e-03	1.011632e-08	1.026502e-09	
88	5.875307e-09	-2.45612e-03	-1.21074e-08	1.079944e-10	
89	6.000000e-09	-2.45558e-03	1.564347e-08	-2.54453e-09	
90	6.005000e-09	-2.30725e-03	2.561616e-08	7.730554e-09	
91	6.015000e-09	-2.26042e-03	4.492317e-08	9.680595e-09	
92	6.035000e-09	-2.45871e-03	3.527567e-08	1.296895e-08	
93	6.050000e-09	-2.63328e-03	-1.20578e-08	6.443388e-09	
94	6.054000e-09	-2.77369e-03	-5.12099e-08	6.904301e-10	
95	6.062000e-09	-2.79759e-03	-1.10080e-07	-1.22316e-08	
96	6.078000e-09	-2.79515e-03	-6.92699e-08	-2.39537e-08	
97	6.110000e-09	-2.80027e-03	-1.11688e-08	-1.31191e-08	
98	6.172930e-09	-2.80393e-03	2.741378e-08	7.369376e-09	
99	6.278867e-09	-2.80991e-03	5.659947e-09	5.129872e-09	
100	6.392845e-09	-2.80772e-03	-1.00068e-08	-3.88498e-09	
101	6.551718e-09	-2.80808e-03	1.014954e-08	2.603950e-09	
102	6.869465e-09	-2.80847e-03	-1.00295e-08	-2.11193e-09	
103	7.000000e-09	-2.80755e-03	9.655670e-09	1.265460e-09	
104	7.005000e-09	-2.73824e-03	1.057989e-08	1.886048e-09	
105	7.015000e-09	-2.71485e-03	2.297448e-08	4.035823e-09	
106	7.035000e-09	-2.80747e-03	2.774030e-08	7.881497e-09	
107	7.050000e-09	-2.89417e-03	5.906323e-09	6.220224e-09	
108	7.054000e-09	-2.95841e-03	-1.15766e-08	3.760971e-09	
109	7.062000e-09	-2.96964e-03	-4.91413e-08	-2.85880e-09	
110	7.078000e-09	-2.97738e-03	-5.36959e-08	-1.29292e-08	
111	7.110000e-09	-2.98176e-03	-1.06688e-08	-1.04951e-08	
112	7.174000e-09	-2.98362e-03	1.554082e-08	4.308114e-09	

Index   time            v1#branch       v2#branch       v3#branch       
--------------------------------------------------------------------------------
113	7.279863e-09	-2.98455e-03	6.125422e-09	3.544551e-09	
114	7.394536e-09	-2.98435e-03	-8.21465e-09	-2.39941e-09	
115	7.554589e-09	-2.98422e-03	7.816656e-09	1.447037e-09	
116	7.874695e-09	-2.98447e-03	-7.51701e-09	-1.09265e-09	
117	8.000000e-09	-2.98415e-03	6.765537e-09	4.777947e-10	
118	8.005000e-09	-2.83720e-03	4.762292e-09	7.482960e-10	
119	8.015000e-09	-2.79178e-03	6.267163e-09	1.349979e-09	
120	8.035000e-09	-2.98863e-03	9.027365e-09	2.418552e-09	
121	8.050000e-09	-3.16095e-03	2.975721e-09	2.125893e-09	
122	8.054000e-09	-3.29796e-03	-1.14580e-09	1.526216e-09	
123	8.062000e-09	-3.31881e-03	-1.09294e-08	-1.50373e-10	
124	8.078000e-09	-3.31990e-03	-1.65862e-08	-3.33459e-09	
125	8.110000e-09	-3.32955e-03	-6.19340e-09	-3.79092e-09	
126	8.171569e-09	-3.33393e-03	4.419290e-09	7.276459e-10	
127	8.278410e-09	-3.33763e-03	3.136979e-09	1.627488e-09	
128	8.391944e-09	-3.33656e-03	-2.86440e-09	-7.70000e-10	
129	8.551075e-09	-3.33635e-03	2.259155e-09	3.262592e-10	
130	8.869337e-09	-3.33709e-03	-2.00602e-09	-1.89217e-10	
131	9.000000e-09	-3.33597e-03	1.540609e-09	-2.64511e-12	
132	9.005000e-09	-3.26723e-03	1.472021e-09	1.254544e-10	
133	9.015000e-09	-3.24469e-03	2.863376e-09	4.593801e-10	
134	9.035000e-09	-3.33711e-03	5.389540e-09	1.262743e-09	
135	9.050000e-09	-3.42240e-03	3.486507e-09	1.418581e-09	
136	9.054000e-09	-3.48573e-03	1.656611e-09	1.209319e-09	
137	9.062000e-09	-3.49542e-03	-3.31782e-09	4.964377e-10	
138	9.078000e-09	-3.50339e-03	-9.45395e-09	-1.42896e-09	
139	9.110000e-09	-3.51039e-03	-5.22266e-09	-2.47572e-09	
140	9.174000e-09	-3.51265e-03	2.719331e-09	2.336154e-10	
141	9.279674e-09	-3.51292e-03	2.051249e-09	1.131657e-09	
142	9.394199e-09	-3.51274e-03	-1.72838e-09	-5.01608e-10	
143	9.554535e-09	-3.51284e-03	1.286901e-09	1.988574e-10	
144	9.875207e-09	-3.51278e-03	-1.10620e-09	-1.06876e-10	
145	1.005000e-08	-3.51281e-03	8.470909e-10	3.112367e-12	
146	1.005500e-08	-3.71714e-03	3.243668e-04	-1.18726e-05	
147	1.006500e-08	-3.86734e-03	4.891527e-04	1.035435e-05	
148	1.008500e-08	-3.83436e-03	5.001451e-04	-2.64414e-05	
149	1.010000e-08	-3.37889e-03	2.627108e-04	-6.45629e-05	
150	1.010313e-08	-3.21988e-03	1.948063e-05	-2.48533e-05	
151	1.010940e-08	-3.16441e-03	-2.48182e-05	-1.33141e-05	
152	1.012194e-08	-3.15286e-03	-7.76701e-06	-7.81025e-06	
153	1.014702e-08	-3.15238e-03	-6.56248e-06	-1.20110e-06	
154	1.019718e-08	-3.16247e-03	3.418182e-06	-7.66521e-07	
155	1.028555e-08	-3.15826e-03	-3.43585e-06	5.547441e-07	
156	1.040501e-08	-3.16262e-03	3.374077e-06	-4.85381e-07	
157	1.064393e-08	-3.15833e-03	-3.33829e-06	4.595871e-07	
158	1.105000e-08	-3.16258e-03	3.315215e-06	-4.45696e-07	
159	1.105500e-08	-3.26142e-03	-7.85575e-06	1.568384e-04	
160	1.106500e-08	-3.33374e-03	2.056277e-05	2.313970e-04	
161	1.108500e-08	-3.33349e-03	2.532215e-05	2.409248e-04	
162	1.110000e-08	-3.10538e-03	-4.97349e-05	1.307775e-04	
163	1.110400e-08	-3.04030e-03	-1.19654e-05	9.583217e-06	
164	1.111200e-08	-3.00415e-03	-1.01337e-05	-5.87750e-06	
165	1.112800e-08	-2.99042e-03	-3.88296e-06	-9.64787e-07	
166	1.116000e-08	-2.98326e-03	9.056885e-07	-7.09684e-07	
167	1.121948e-08	-2.98493e-03	-9.42732e-07	6.699310e-07	
168	1.133825e-08	-2.98377e-03	9.136688e-07	-6.67476e-07	
169	1.157579e-08	-2.98480e-03	-8.99404e-07	6.648548e-07	
170	1.205000e-08	-2.98382e-03	8.923821e-07	-6.63214e-07	

Index   time            v1#branch       v2#branch       v3#branch       
--------------------------------------------------------------------------------
171	1.205500e-08	-3.16997e-03	-4.44665e-06	-1.73698e-06	
172	1.206500e-08	-3.34532e-03	4.085593e-06	8.000840e-07	
173	1.208500e-08	-3.39303e-03	1.251604e-05	6.120946e-06	
174	1.210000e-08	-2.86865e-03	-1.62442e-05	-5.04105e-06	
175	1.210400e-08	-2.72769e-03	-3.73575e-06	-2.70380e-06	
176	1.211200e-08	-2.66066e-03	-2.37568e-06	-1.00587e-06	
177	1.212800e-08	-2.63897e-03	-2.46024e-06	-1.38994e-06	
178	1.216000e-08	-2.63209e-03	5.371039e-07	3.028965e-07	
179	1.222400e-08	-2.63249e-03	-6.92660e-07	-3.62905e-07	
180	1.235200e-08	-2.63142e-03	7.040624e-07	3.590353e-07	
181	1.260800e-08	-2.63257e-03	-7.05040e-07	-3.54903e-07	
182	1.305000e-08	-2.63140e-03	7.047154e-07	3.521182e-07	
183	1.305500e-08	-2.73039e-03	-1.04465e-06	-3.35259e-07	
184	1.306500e-08	-2.81218e-03	7.131832e-08	-1.81854e-07	
185	1.308500e-08	-2.82215e-03	3.648273e-06	1.634780e-06	
186	1.310000e-08	-2.58376e-03	-1.86464e-06	-2.71296e-07	
187	1.310400e-08	-2.51494e-03	-1.19407e-06	-4.73241e-07	
188	1.311200e-08	-2.47839e-03	-7.43497e-07	-4.67777e-07	
189	1.312800e-08	-2.46326e-03	-9.11276e-07	-3.69225e-07	
190	1.316000e-08	-2.45575e-03	9.343419e-08	-6.44658e-08	
191	1.322400e-08	-2.45601e-03	-1.50078e-07	3.085655e-08	
192	1.335200e-08	-2.45569e-03	1.552282e-07	-2.62709e-08	
193	1.360800e-08	-2.45596e-03	-1.56135e-07	2.487193e-08	
194	1.405000e-08	-2.45571e-03	1.563252e-07	-2.42406e-08	
195	1.405500e-08	-2.63992e-03	-4.03820e-07	-1.54655e-07	
196	1.406500e-08	-2.81654e-03	-6.03471e-08	-8.93562e-08	
197	1.408500e-08	-2.88112e-03	1.631351e-06	6.997788e-07	
198	1.410000e-08	-2.33807e-03	-5.06129e-07	2.299463e-08	
199	1.410400e-08	-2.20081e-03	-3.79990e-07	-1.13799e-07	
200	1.411200e-08	-2.13630e-03	-2.66978e-07	-1.73520e-07	
201	1.412800e-08	-2.11255e-03	-4.41214e-07	-1.70803e-07	
202	1.416000e-08	-2.10426e-03	-5.54404e-08	-8.43365e-08	
203	1.422400e-08	-2.10374e-03	-2.21604e-08	4.071523e-08	
204	1.435200e-08	-2.10318e-03	3.058249e-08	-3.50633e-08	
205	1.460800e-08	-2.10389e-03	-3.25354e-08	3.345239e-08	
206	1.505000e-08	-2.10313e-03	3.322849e-08	-3.27540e-08	
207	1.505500e-08	-2.20175e-03	-9.42949e-08	-3.91830e-08	
208	1.506500e-08	-2.28285e-03	-8.94209e-08	-4.74073e-08	
209	1.508500e-08	-2.29861e-03	4.191865e-07	1.672241e-07	
210	1.510000e-08	-2.05180e-03	1.077707e-07	1.046665e-07	
211	1.510400e-08	-1.98497e-03	6.991275e-09	3.657731e-08	
212	1.511200e-08	-1.95036e-03	-8.32018e-08	-3.54516e-08	
213	1.512800e-08	-1.93568e-03	-1.21721e-07	-5.99025e-08	
214	1.516000e-08	-1.92740e-03	-6.63072e-08	-3.49280e-08	
215	1.522400e-08	-1.92760e-03	2.755154e-08	1.335560e-08	
216	1.535200e-08	-1.92712e-03	-2.16928e-08	-9.85867e-09	
217	1.560800e-08	-1.92760e-03	1.986758e-08	8.721389e-09	
218	1.605000e-08	-1.92713e-03	-1.90418e-08	-8.18720e-09	
219	1.605500e-08	-2.11133e-03	-4.05235e-08	-1.64240e-08	
220	1.606500e-08	-2.28803e-03	-4.01333e-08	-2.11365e-08	
221	1.608500e-08	-2.35452e-03	1.831399e-07	7.291646e-08	
222	1.610000e-08	-1.80869e-03	8.471156e-08	6.038986e-08	
223	1.610400e-08	-1.67233e-03	3.192629e-08	3.014485e-08	
224	1.611200e-08	-1.60847e-03	-1.77352e-08	-4.80773e-09	
225	1.612800e-08	-1.58472e-03	-5.51903e-08	-2.61092e-08	
226	1.616000e-08	-1.57602e-03	-4.56789e-08	-2.34773e-08	
227	1.622400e-08	-1.57524e-03	1.234420e-08	5.557966e-09	
228	1.635200e-08	-1.57472e-03	-8.65322e-09	-3.48077e-09	

Index   time            v1#branch       v2#branch       v3#branch       
--------------------------------------------------------------------------------
229	1.660800e-08	-1.57542e-03	7.666116e-09	2.902217e-09	
230	1.705000e-08	-1.57466e-03	-7.24944e-09	-2.64976e-09	
231	1.705500e-08	-1.67329e-03	-1.05221e-08	-4.57677e-09	
232	1.706500e-08	-1.75418e-03	-1.55571e-08	-7.08771e-09	
233	1.708500e-08	-1.77074e-03	4.161915e-08	1.549022e-08	
234	1.710000e-08	-1.52255e-03	4.690995e-08	2.510802e-08	
235	1.710400e-08	-1.45611e-03	2.867442e-08	1.745509e-08	
236	1.711200e-08	-1.42195e-03	5.131002e-09	5.263337e-09	
237	1.712800e-08	-1.40743e-03	-1.62345e-08	-7.59615e-09	
238	1.716000e-08	-1.39907e-03	-1.77510e-08	-8.84831e-09	
239	1.722400e-08	-1.39910e-03	2.954174e-09	1.037456e-09	
240	1.735200e-08	-1.39867e-03	-1.26195e-09	-1.54393e-10	
241	1.760800e-08	-1.39911e-03	8.063687e-10	-8.02773e-11	
242	1.805000e-08	-1.39867e-03	-6.12767e-10	1.790551e-10	
243	1.805500e-08	-1.58288e-03	-4.20849e-09	-1.62057e-09	
244	1.806500e-08	-1.75986e-03	-6.90726e-09	-3.13448e-09	
245	1.808500e-08	-1.82237e-03	1.896823e-08	7.061400e-09	
246	1.810000e-08	-1.28014e-03	2.701252e-08	1.363740e-08	
247	1.810400e-08	-1.14473e-03	1.878513e-08	1.052681e-08	
248	1.811200e-08	-1.08181e-03	7.430429e-09	5.045290e-09	
249	1.812800e-08	-1.05767e-03	-6.06238e-09	-2.47750e-09	
250	1.816000e-08	-1.04776e-03	-1.13619e-08	-5.71308e-09	
251	1.822400e-08	-1.04657e-03	1.872447e-10	-5.00543e-11	
252	1.835200e-08	-1.04640e-03	5.747235e-10	4.079635e-10	
253	1.860800e-08	-1.04680e-03	-7.01001e-10	-4.57112e-10	
254	1.912000e-08	-1.04633e-03	7.321837e-10	4.657426e-10	
255	1.972000e-08	-1.04683e-03	-7.47477e-10	-4.67560e-10	
256	2.000000e-08	-1.04630e-03	7.559050e-10	4.598142e-10	
257	2.000500e-08	-8.67205e-04	-2.79030e-04	1.725940e-05	
258	2.001500e-08	-7.98849e-04	-3.68930e-04	-7.05206e-07	
259	2.003500e-08	-1.03355e-03	-3.89166e-04	-5.31128e-06	
260	2.005000e-08	-1.22578e-03	-4.16164e-04	4.594724e-06	
261	2.005400e-08	-1.40034e-03	-1.28672e-04	-1.89079e-05	
262	2.006200e-08	-1.44959e-03	-6.06433e-05	-3.69698e-06	
263	2.007800e-08	-1.43971e-03	-6.47467e-05	1.313977e-06	
264	2.011000e-08	-1.47338e-03	-1.22434e-06	1.155075e-05	
265	2.017400e-08	-1.40847e-03	7.277338e-06	5.806684e-06	
266	2.026645e-08	-1.39933e-03	-1.25162e-06	4.364911e-06	
267	2.038311e-08	-1.39996e-03	3.009135e-06	3.514873e-06	
268	2.050970e-08	-1.40032e-03	-9.15416e-07	-4.15282e-08	
269	2.076287e-08	-1.39740e-03	7.712653e-07	5.159532e-07	
270	2.100000e-08	-1.40058e-03	-5.24716e-07	-6.73527e-07	
271	2.100500e-08	-1.32364e-03	2.259268e-05	-1.32282e-04	
272	2.101500e-08	-1.28329e-03	6.632612e-06	-1.75236e-04	
273	2.103500e-08	-1.37846e-03	-5.16345e-06	-2.05564e-04	
274	2.105000e-08	-1.47619e-03	-1.06862e-05	-1.99901e-04	
275	2.105400e-08	-1.54815e-03	-2.63669e-05	-7.73948e-05	
276	2.106200e-08	-1.56963e-03	-6.14926e-06	-6.00634e-05	
277	2.107800e-08	-1.58633e-03	-1.38060e-07	-4.37475e-05	
278	2.111000e-08	-1.61765e-03	-9.00315e-06	1.476101e-05	
279	2.117400e-08	-1.59364e-03	1.276195e-05	-1.55047e-06	
280	2.124483e-08	-1.57645e-03	-7.99848e-06	4.868812e-06	
281	2.137897e-08	-1.57237e-03	7.240483e-06	-5.07953e-06	
282	2.149971e-08	-1.57858e-03	-6.46933e-06	5.243470e-06	
283	2.174121e-08	-1.57132e-03	6.115764e-06	-5.29907e-06	
284	2.200000e-08	-1.57903e-03	-5.80279e-06	5.339106e-06	
285	2.200500e-08	-1.42124e-03	1.064118e-06	1.742947e-07	
286	2.201500e-08	-1.37424e-03	1.666462e-06	6.602166e-07	

Index   time            v1#branch       v2#branch       v3#branch       
--------------------------------------------------------------------------------
287	2.203500e-08	-1.57331e-03	-3.11310e-06	-4.86655e-07	
288	2.205000e-08	-1.74362e-03	-1.31561e-07	1.014098e-07	
289	2.205400e-08	-1.89176e-03	-7.17547e-06	-9.14954e-07	
290	2.206200e-08	-1.92527e-03	-3.08326e-06	-1.20276e-06	
291	2.207800e-08	-1.92812e-03	1.093568e-06	-6.18142e-07	
292	2.211000e-08	-1.93059e-03	-6.15648e-07	1.198279e-07	
293	2.217395e-08	-1.92427e-03	2.397235e-06	3.266560e-07	
294	2.228031e-08	-1.92871e-03	-1.90210e-06	-1.41161e-08	
295	2.239353e-08	-1.92732e-03	1.760406e-06	-3.52888e-08	
296	2.254629e-08	-1.92686e-03	-1.69610e-06	4.244665e-08	
297	2.285180e-08	-1.92813e-03	1.667798e-06	-4.35023e-08	
298	2.300000e-08	-1.92632e-03	-1.61292e-06	4.384903e-08	
299	2.300500e-08	-1.85626e-03	8.200265e-07	1.378111e-07	
300	2.301500e-08	-1.83069e-03	1.242510e-06	2.557305e-07	
301	2.303500e-08	-1.92289e-03	-7.60875e-07	5.044600e-08	
302	2.305000e-08	-2.00820e-03	-1.24288e-07	-3.78698e-08	
303	2.305400e-08	-2.07592e-03	-2.09124e-06	-1.96549e-07	
304	2.306200e-08	-2.09091e-03	-2.73731e-06	-4.47497e-07	
305	2.307800e-08	-2.10314e-03	-2.14957e-07	-5.29273e-07	
306	2.311000e-08	-2.10807e-03	-6.89333e-08	2.602048e-09	
307	2.317400e-08	-2.10517e-03	9.002936e-07	1.608091e-07	
308	2.327749e-08	-2.10258e-03	-5.34913e-07	2.699912e-08	
309	2.338842e-08	-2.10441e-03	4.178564e-07	-4.78142e-08	
310	2.354145e-08	-2.10271e-03	-3.64758e-07	4.628313e-08	
311	2.384751e-08	-2.10437e-03	3.422862e-07	-4.43584e-08	
312	2.400000e-08	-2.10275e-03	-3.02173e-07	3.997945e-08	
313	2.400500e-08	-1.95451e-03	1.917501e-07	5.946827e-08	
314	2.401500e-08	-1.90734e-03	3.432143e-07	7.606070e-08	
315	2.403500e-08	-2.10481e-03	-4.78177e-08	4.297327e-08	
316	2.405000e-08	-2.27804e-03	-1.96139e-07	-1.21015e-08	
317	2.405400e-08	-2.41993e-03	-6.46062e-07	-5.92773e-08	
318	2.406200e-08	-2.44521e-03	-7.95725e-07	-1.25982e-07	
319	2.407800e-08	-2.44459e-03	-9.91397e-08	-1.56202e-07	
320	2.411000e-08	-2.44936e-03	-7.26330e-08	-1.85585e-08	
321	2.417355e-08	-2.45208e-03	2.619535e-07	4.354170e-08	
322	2.427990e-08	-2.45736e-03	-1.18226e-07	1.784587e-08	
323	2.439464e-08	-2.45560e-03	7.909771e-08	-2.02108e-08	
324	2.455277e-08	-2.45557e-03	-6.45850e-08	1.715627e-08	
325	2.486904e-08	-2.45635e-03	5.894501e-08	-1.55721e-08	
326	2.500000e-08	-2.45503e-03	-4.74611e-08	1.224264e-08	
327	2.500500e-08	-2.38578e-03	6.997238e-08	1.933325e-08	
328	2.501500e-08	-2.36215e-03	1.953867e-07	3.388043e-08	
329	2.503500e-08	-2.45419e-03	7.870172e-08	4.384244e-08	
330	2.505000e-08	-2.54068e-03	-6.81841e-08	7.277182e-09	
331	2.505400e-08	-2.60541e-03	-2.33338e-07	-9.06282e-09	
